! ListType=Lin
# MHz S RI R 50
  1.0000000  -0.8669813   0.4853626 
  1.0098020  -0.8646404   0.4893429 
  1.0196039  -0.8621236   0.4936173 
  1.0294059  -0.8598572   0.4975306 
  1.0392078  -0.8576175   0.5017135 
  1.0490098  -0.8553449   0.5058748 
  1.0588118  -0.8526066   0.5102253 
  1.0686137  -0.8499958   0.5140266 
  1.0784157  -0.8477018   0.5182718 
  1.0882176  -0.8453577   0.5218389 
  1.0980196  -0.8428357   0.5261290 
  1.1078216  -0.8399586   0.5299035 
  1.1176235  -0.8375996   0.5337038 
  1.1274255  -0.8351534   0.5377597 
  1.1372274  -0.8326365   0.5418144 
  1.1470294  -0.8304163   0.5456151 
  1.1568314  -0.8276497   0.5495040 
  1.1666333  -0.8249791   0.5531765 
  1.1764353  -0.8224080   0.5568443 
  1.1862372  -0.8198254   0.5609197 
  1.1960392  -0.8174211   0.5649034 
  1.2058412  -0.8148375   0.5684588 
  1.2156431  -0.8122656   0.5721195 
  1.2254451  -0.8094619   0.5761718 
  1.2352470  -0.8067373   0.5801500 
  1.2450490  -0.8038481   0.5837674 
  1.2548510  -0.8011283   0.5876855 
  1.2646529  -0.7983637   0.5911258 
  1.2744549  -0.7954310   0.5947740 
  1.2842569  -0.7927378   0.5982159 
  1.2940588  -0.7899069   0.6020208 
  1.3038608  -0.7875142   0.6056606 
  1.3136627  -0.7845905   0.6089940 
  1.3234647  -0.7817378   0.6124836 
  1.3332667  -0.7780744   0.6155753 
  1.3430686  -0.7760260   0.6196248 
  1.3528706  -0.7734177   0.6229564 
  1.3626725  -0.7705548   0.6265702 
  1.3724745  -0.7677636   0.6300202 
  1.3822765  -0.7647787   0.6337982 
  1.3920784  -0.7618807   0.6371500 
  1.4018804  -0.7597125   0.6404966 
  1.4116823  -0.7561941   0.6441155 
  1.4214843  -0.7535161   0.6476300 
  1.4312863  -0.7502329   0.6508407 
  1.4410882  -0.7471033   0.6543120 
  1.4508902  -0.7442833   0.6575701 
  1.4606921  -0.7414467   0.6607472 
  1.4704941  -0.7386091   0.6644072 
  1.4802961  -0.7358344   0.6675295 
  1.4900980  -0.7326798   0.6704734 
  1.4999000  -0.7297192   0.6737624 
  1.5097019  -0.7265444   0.6766914 
  1.5195039  -0.7239121   0.6799480 
  1.5293059  -0.7206682   0.6831559 
  1.5391078  -0.7176707   0.6861434 
  1.5489098  -0.7146766   0.6895765 
  1.5587117  -0.7118610   0.6924935 
  1.5685137  -0.7084449   0.6959363 
  1.5783157  -0.7059337   0.6988023 
  1.5881176  -0.7028443   0.7019079 
  1.5979196  -0.6995577   0.7055284 
  1.6077215  -0.6960415   0.7084943 
  1.6175235  -0.6928849   0.7114941 
  1.6273255  -0.6901361   0.7142019 
  1.6371274  -0.6867833   0.7173135 
  1.6469294  -0.6840355   0.7202481 
  1.6567313  -0.6803576   0.7233277 
  1.6665333  -0.6777336   0.7262602 
  1.6763353  -0.6744833   0.7285834 
  1.6861372  -0.6712552   0.7316154 
  1.6959392  -0.6682804   0.7343451 
  1.7057411  -0.6649813   0.7374096 
  1.7155431  -0.6618477   0.7403100 
  1.7253451  -0.6588854   0.7427794 
  1.7351470  -0.6558250   0.7458888 
  1.7449490  -0.6529129   0.7484045 
  1.7547510  -0.6493086   0.7512778 
  1.7645529  -0.6463398   0.7540246 
  1.7743549  -0.6429800   0.7573417 
  1.7841568  -0.6395309   0.7600086 
  1.7939588  -0.6363175   0.7627087 
  1.8037608  -0.6331781   0.7653005 
  1.8135627  -0.6297242   0.7679650 
  1.8233647  -0.6265876   0.7703607 
  1.8331666  -0.6235233   0.7728244 
  1.8429686  -0.6202584   0.7754467 
  1.8527706  -0.6170714   0.7780085 
  1.8625725  -0.6134750   0.7805489 
  1.8723745  -0.6107680   0.7826537 
  1.8821764  -0.6076256   0.7855404 
  1.8919784  -0.6043370   0.7875383 
  1.9017804  -0.6010658   0.7903596 
  1.9115823  -0.5982172   0.7928618 
  1.9213843  -0.5946521   0.7951030 
  1.9311862  -0.5918427   0.7980499 
  1.9409882  -0.5883947   0.8002340 
  1.9507902  -0.5847401   0.8029120 
  1.9605921  -0.5813187   0.8053248 
  1.9703941  -0.5782979   0.8076846 
  1.9801960  -0.5749601   0.8099529 
  1.9899980  -0.5719037   0.8126025 
  1.9998000  -0.5684051   0.8145730 
  2.0096019  -0.5648905   0.8168669 
  2.0194039  -0.5617371   0.8190601 
  2.0292058  -0.5583421   0.8212302 
  2.0390078  -0.5550955   0.8234010 
  2.0488098  -0.5518891   0.8256495 
  2.0586117  -0.5487257   0.8278749 
  2.0684137  -0.5453450   0.8297387 
  2.0782156  -0.5422655   0.8319038 
  2.0880176  -0.5384828   0.8341363 
  2.0978196  -0.5354138   0.8363204 
  2.1076215  -0.5322783   0.8384841 
  2.1174235  -0.5292920   0.8404513 
  2.1272254  -0.5259806   0.8425951 
  2.1370274  -0.5221878   0.8453209 
  2.1468294  -0.5187267   0.8470138 
  2.1566313  -0.5159243   0.8493338 
  2.1664333  -0.5120037   0.8509833 
  2.1762352  -0.5086333   0.8529352 
  2.1860372  -0.5058521   0.8551151 
  2.1958392  -0.5021338   0.8568282 
  2.2056411  -0.4988379   0.8586609 
  2.2154431  -0.4956493   0.8606289 
  2.2252450  -0.4922410   0.8624696 
  2.2350470  -0.4889480   0.8644468 
  2.2448490  -0.4859122   0.8662372 
  2.2546509  -0.4826016   0.8681539 
  2.2644529  -0.4793865   0.8697992 
  2.2742549  -0.4760219   0.8715608 
  2.2840568  -0.4728629   0.8733383 
  2.2938588  -0.4696847   0.8753085 
  2.3036607  -0.4662327   0.8771328 
  2.3134627  -0.4625156   0.8797125 
  2.3232647  -0.4592947   0.8809299 
  2.3330666  -0.4556987   0.8829512 
  2.3428686  -0.4522086   0.8844978 
  2.3526705  -0.4488776   0.8861568 
  2.3624725  -0.4456846   0.8878166 
  2.3722745  -0.4425685   0.8892262 
  2.3820764  -0.4393014   0.8909802 
  2.3918784  -0.4360095   0.8922049 
  2.4016803  -0.4330485   0.8938521 
  2.4114823  -0.4292159   0.8956075 
  2.4212843  -0.4259908   0.8971607 
  2.4310862  -0.4226426   0.8984361 
  2.4408882  -0.4196839   0.9001201 
  2.4506901  -0.4165175   0.9018023 
  2.4604921  -0.4133010   0.9032253 
  2.4702941  -0.4099014   0.9048375 
  2.4800960  -0.4068816   0.9066742 
  2.4898980  -0.4032372   0.9079123 
  2.4996999  -0.4001149   0.9100565 
  2.5095019  -0.3966334   0.9113596 
  2.5193039  -0.3930810   0.9124167 
  2.5291058  -0.3896936   0.9139749 
  2.5389078  -0.3862248   0.9149561 
  2.5487097  -0.3832301   0.9164444 
  2.5585117  -0.3800222   0.9175138 
  2.5683137  -0.3767545   0.9190806 
  2.5781156  -0.3735478   0.9206198 
  2.5879176  -0.3701400   0.9218355 
  2.5977195  -0.3670186   0.9231970 
  2.6075215  -0.3637924   0.9241680 
  2.6173235  -0.3608119   0.9255731 
  2.6271254  -0.3574023   0.9268317 
  2.6369274  -0.3544531   0.9281924 
  2.6467293  -0.3512892   0.9294027 
  2.6565313  -0.3483021   0.9307302 
  2.6663333  -0.3450658   0.9321765 
  2.6761352  -0.3410991   0.9335649 
  2.6859372  -0.3373650   0.9344354 
  2.6957391  -0.3345742   0.9358403 
  2.7055411  -0.3311697   0.9370299 
  2.7153431  -0.3282903   0.9378955 
  2.7251450  -0.3248645   0.9392867 
  2.7349470  -0.3215249   0.9401908 
  2.7447489  -0.3183440   0.9412396 
  2.7545509  -0.3151030   0.9421817 
  2.7643529  -0.3121941   0.9433097 
  2.7741548  -0.3090356   0.9445246 
  2.7839568  -0.3056015   0.9451371 
  2.7937588  -0.3029305   0.9462171 
  2.8035607  -0.2995500   0.9473460 
  2.8133627  -0.2963155   0.9486104 
  2.8231646  -0.2933858   0.9494894 
  2.8329666  -0.2901809   0.9507329 
  2.8427686  -0.2871005   0.9514501 
  2.8525705  -0.2835021   0.9530373 
  2.8623725  -0.2803540   0.9539796 
  2.8721744  -0.2769357   0.9548444 
  2.8819764  -0.2739943   0.9553370 
  2.8917784  -0.2705247   0.9565592 
  2.9015803  -0.2676049   0.9569404 
  2.9113823  -0.2643359   0.9580854 
  2.9211842  -0.2612719   0.9585551 
  2.9309862  -0.2583807   0.9596940 
  2.9407882  -0.2549908   0.9606001 
  2.9505901  -0.2521222   0.9614561 
  2.9603921  -0.2487307   0.9620467 
  2.9701940  -0.2459903   0.9629598 
  2.9799960  -0.2428459   0.9635814 
  2.9897980  -0.2400399   0.9644677 
  2.9995999  -0.2367686   0.9650934 
  3.0094019  -0.2338029   0.9661792 
  3.0192038  -0.2307985   0.9667135 
  3.0290058  -0.2276507   0.9676296 
  3.0388078  -0.2241216   0.9685529 
  3.0486097  -0.2207490   0.9692177 
  3.0584117  -0.2176474   0.9703079 
  3.0682136  -0.2145443   0.9705879 
  3.0780156  -0.2116162   0.9713856 
  3.0878176  -0.2085656   0.9718978 
  3.0976195  -0.2058651   0.9726956 
  3.1074215  -0.2025019   0.9730297 
  3.1172234  -0.1996011   0.9736255 
  3.1270254  -0.1966895   0.9743777 
  3.1368274  -0.1937634   0.9748104 
  3.1466293  -0.1906469   0.9756708 
  3.1564313  -0.1877976   0.9759760 
  3.1662332  -0.1847729   0.9768763 
  3.1760352  -0.1821461   0.9771500 
  3.1858372  -0.1790540   0.9777334 
  3.1956391  -0.1760521   0.9785837 
  3.2054411  -0.1730455   0.9794184 
  3.2152430  -0.1692304   0.9801066 
  3.2250450  -0.1665633   0.9805512 
  3.2348470  -0.1634229   0.9811137 
  3.2446489  -0.1599002   0.9815890 
  3.2544509  -0.1572396   0.9819590 
  3.2642529  -0.1549173   0.9823543 
  3.2740548  -0.1517308   0.9825339 
  3.2838568  -0.1487592   0.9831861 
  3.2936587  -0.1454206   0.9834740 
  3.3034607  -0.1428761   0.9840684 
  3.3132627  -0.1397392   0.9839811 
  3.3230646  -0.1371962   0.9850208 
  3.3328666  -0.1340704   0.9851066 
  3.3426685  -0.1310173   0.9852672 
  3.3524705  -0.1286429   0.9861461 
  3.3622725  -0.1258715   0.9864402 
  3.3720744  -0.1229256   0.9865969 
  3.3818764  -0.1201523   0.9872503 
  3.3916783  -0.1165348   0.9880936 
  3.4014803  -0.1135335   0.9880793 
  3.4112823  -0.1106700   0.9884316 
  3.4210842  -0.1077451   0.9888121 
  3.4308862  -0.1050817   0.9893329 
  3.4406881  -0.1024542   0.9892636 
  3.4504901  -0.0994558   0.9894537 
  3.4602921  -0.0965771   0.9899732 
  3.4700940  -0.0938580   0.9898682 
  3.4798960  -0.0911507   0.9903499 
  3.4896979  -0.0879488   0.9902587 
  3.4994999  -0.0855663   0.9908230 
  3.5093019  -0.0829248   0.9908036 
  3.5191038  -0.0801511   0.9911743 
  3.5289058  -0.0775490   0.9912095 
  3.5387077  -0.0746354   0.9914584 
  3.5485097  -0.0716282   0.9917673 
  3.5583117  -0.0691614   0.9921332 
  3.5681136  -0.0664535   0.9921673 
  3.5779156  -0.0630079   0.9928980 
  3.5877175  -0.0601231   0.9929935 
  3.5975195  -0.0573523   0.9934058 
  3.6073215  -0.0545072   0.9935390 
  3.6171234  -0.0521084   0.9935520 
  3.6269254  -0.0491905   0.9936336 
  3.6367273  -0.0463174   0.9934530 
  3.6465293  -0.0435804   0.9940651 
  3.6563313  -0.0410990   0.9939664 
  3.6661332  -0.0383070   0.9939095 
  3.6759352  -0.0359344   0.9939890 
  3.6857371  -0.0335971   0.9941066 
  3.6955391  -0.0303990   0.9940094 
  3.7053411  -0.0279886   0.9939866 
  3.7151430  -0.0257536   0.9942027 
  3.7249450  -0.0226562   0.9943138 
  3.7347469  -0.0201097   0.9944971 
  3.7445489  -0.0172574   0.9950549 
  3.7543509  -0.0140965   0.9948139 
  3.7641528  -0.0114467   0.9951691 
  3.7739548  -0.0085206   0.9950016 
  3.7837568  -0.0062151   0.9949415 
  3.7935587  -0.0036479   0.9948628 
  3.8033607  -0.0009746   0.9949437 
  3.8131626   0.0016308   0.9950817 
  3.8229646   0.0044823   0.9947671 
  3.8327666   0.0068244   0.9946703 
  3.8425685   0.0094920   0.9948912 
  3.8523705   0.0118920   0.9948131 
  3.8621724   0.0144439   0.9946705 
  3.8719744   0.0164700   0.9947104 
  3.8817764   0.0194468   0.9947684 
  3.8915783   0.0219129   0.9945465 
  3.9013803   0.0243807   0.9948391 
  3.9111822   0.0266507   0.9945818 
  3.9209842   0.0292911   0.9945980 
  3.9307862   0.0325930   0.9950256 
  3.9405881   0.0354467   0.9951191 
  3.9503901   0.0376688   0.9943580 
  3.9601920   0.0404385   0.9945041 
  3.9699940   0.0428003   0.9943936 
  3.9797960   0.0451344   0.9943101 
  3.9895979   0.0477096   0.9941864 
  3.9993999   0.0497559   0.9938692 
  4.0092018   0.0528147   0.9937230 
  4.0190038   0.0548245   0.9934144 
  4.0288058   0.0573743   0.9935126 
  4.0386077   0.0600001   0.9936628 
  4.0484097   0.0621374   0.9932964 
  4.0582116   0.0647998   0.9931250 
  4.0680136   0.0670941   0.9928507 
  4.0778156   0.0695615   0.9929068 
  4.0876175   0.0718552   0.9924487 
  4.0974195   0.0744778   0.9923846 
  4.1072214   0.0766891   0.9922201 
  4.1170234   0.0798464   0.9923877 
  4.1268254   0.0821615   0.9921146 
  4.1366273   0.0847703   0.9918478 
  4.1464293   0.0870118   0.9918803 
  4.1562312   0.0892096   0.9914549 
  4.1660332   0.0913652   0.9914668 
  4.1758352   0.0939180   0.9911305 
  4.1856371   0.0966345   0.9906450 
  4.1954391   0.0987217   0.9903585 
  4.2052410   0.1010201   0.9902165 
  4.2150430   0.1029543   0.9898542 
  4.2248450   0.1052938   0.9896157 
  4.2346469   0.1078132   0.9896372 
  4.2444489   0.1105005   0.9892390 
  4.2542509   0.1122053   0.9890696 
  4.2640528   0.1147988   0.9885877 
  4.2738548   0.1169565   0.9883824 
  4.2836567   0.1190245   0.9882155 
  4.2934587   0.1222571   0.9885058 
  4.3032607   0.1242890   0.9881753 
  4.3130626   0.1267822   0.9875139 
  4.3228646   0.1291142   0.9872702 
  4.3326665   0.1313062   0.9871982 
  4.3424685   0.1335676   0.9863653 
  4.3522705   0.1361538   0.9864308 
  4.3620724   0.1380252   0.9857952 
  4.3718744   0.1400273   0.9852451 
  4.3816763   0.1423824   0.9852707 
  4.3914783   0.1446839   0.9849391 
  4.4012803   0.1466137   0.9846896 
  4.4110822   0.1492572   0.9841494 
  4.4208842   0.1514603   0.9839513 
  4.4306861   0.1530689   0.9832711 
  4.4404881   0.1555410   0.9835279 
  4.4502901   0.1574436   0.9832344 
  4.4600920   0.1595955   0.9827978 
  4.4698940   0.1625954   0.9826091 
  4.4796959   0.1648806   0.9822411 
  4.4894979   0.1671322   0.9818922 
  4.4992999   0.1693241   0.9814490 
  4.5091018   0.1716124   0.9813250 
  4.5189038   0.1737565   0.9805641 
  4.5287057   0.1759824   0.9802586 
  4.5385077   0.1779482   0.9797885 
  4.5483097   0.1798511   0.9791994 
  4.5581116   0.1821552   0.9785693 
  4.5679136   0.1843088   0.9785119 
  4.5777155   0.1863517   0.9781538 
  4.5875175   0.1884469   0.9776490 
  4.5973195   0.1901994   0.9773950 
  4.6071214   0.1924153   0.9768319 
  4.6169234   0.1946649   0.9767526 
  4.6267253   0.1963511   0.9761325 
  4.6365273   0.1983689   0.9763922 
  4.6463293   0.2002448   0.9755253 
  4.6561312   0.2033197   0.9753769 
  4.6659332   0.2054442   0.9750892 
  4.6757351   0.2076458   0.9744221 
  4.6855371   0.2094782   0.9739983 
  4.6953391   0.2120477   0.9733486 
  4.7051410   0.2136290   0.9728370 
  4.7149430   0.2156749   0.9724988 
  4.7247449   0.2179038   0.9722100 
  4.7345469   0.2197786   0.9712689 
  4.7443489   0.2213184   0.9707963 
  4.7541508   0.2234828   0.9705632 
  4.7639528   0.2254332   0.9704232 
  4.7737548   0.2277742   0.9697773 
  4.7835567   0.2294850   0.9693658 
  4.7933587   0.2314351   0.9687054 
  4.8031606   0.2333341   0.9683819 
  4.8129626   0.2354016   0.9679392 
  4.8227646   0.2371299   0.9678329 
  4.8325665   0.2398603   0.9676566 
  4.8423685   0.2421705   0.9669154 
  4.8521704   0.2440552   0.9661949 
  4.8619724   0.2461975   0.9655824 
  4.8717744   0.2477976   0.9650176 
  4.8815763   0.2499571   0.9644750 
  4.8913783   0.2520037   0.9637475 
  4.9011802   0.2536031   0.9631871 
  4.9109822   0.2553882   0.9627374 
  4.9207842   0.2573195   0.9624874 
  4.9305861   0.2589545   0.9616582 
  4.9403881   0.2607520   0.9612442 
  4.9501900   0.2630388   0.9609272 
  4.9599920   0.2648370   0.9604418 
  4.9697940   0.2667053   0.9597076 
  4.9795959   0.2686560   0.9593051 
  4.9893979   0.2702151   0.9593560 
  4.9991998   0.2724452   0.9586358 
  5.0090018   0.2741376   0.9582757 
  5.0188038   0.2764745   0.9573328 
  5.0286057   0.2788734   0.9567991 
  5.0384077   0.2803700   0.9564868 
  5.0482096   0.2824040   0.9557737 
  5.0580116   0.2840090   0.9549845 
  5.0678136   0.2860255   0.9545010 
  5.0776155   0.2877239   0.9539100 
  5.0874175   0.2895825   0.9532917 
  5.0972194   0.2913409   0.9526412 
  5.1070214   0.2928696   0.9523584 
  5.1168234   0.2946534   0.9515743 
  5.1266253   0.2964758   0.9507910 
  5.1364273   0.2980259   0.9508939 
  5.1462292   0.3001412   0.9501641 
  5.1560312   0.3019857   0.9496394 
  5.1658332   0.3033344   0.9490032 
  5.1756351   0.3053079   0.9484363 
  5.1854371   0.3073175   0.9487458 
  5.1952390   0.3095167   0.9480730 
  5.2050410   0.3112965   0.9474556 
  5.2148430   0.3129877   0.9461336 
  5.2246449   0.3146113   0.9462242 
  5.2344469   0.3167915   0.9453262 
  5.2442488   0.3180804   0.9445670 
  5.2540508   0.3202958   0.9441540 
  5.2638528   0.3213550   0.9432535 
  5.2736547   0.3235474   0.9429350 
  5.2834567   0.3251934   0.9421321 
  5.2932587   0.3264734   0.9413423 
  5.3030606   0.3288009   0.9408551 
  5.3128626   0.3299544   0.9399151 
  5.3226645   0.3319182   0.9397474 
  5.3324665   0.3329299   0.9387461 
  5.3422685   0.3351308   0.9385475 
  5.3520704   0.3366072   0.9384708 
  5.3618724   0.3386453   0.9375497 
  5.3716743   0.3406983   0.9371513 
  5.3814763   0.3422571   0.9364383 
  5.3912783   0.3443531   0.9354567 
  5.4010802   0.3454682   0.9353007 
  5.4108822   0.3473273   0.9347563 
  5.4206841   0.3489320   0.9338113 
  5.4304861   0.3506569   0.9333403 
  5.4402881   0.3526082   0.9326567 
  5.4500900   0.3541178   0.9321127 
  5.4598920   0.3552717   0.9312719 
  5.4696939   0.3572260   0.9302576 
  5.4794959   0.3588159   0.9300320 
  5.4892979   0.3601452   0.9292077 
  5.4990998   0.3617989   0.9286104 
  5.5089018   0.3633313   0.9280469 
  5.5187037   0.3649449   0.9276498 
  5.5285057   0.3661284   0.9272302 
  5.5383077   0.3681910   0.9264325 
  5.5481096   0.3695168   0.9259933 
  5.5579116   0.3719565   0.9250275 
  5.5677135   0.3733555   0.9246109 
  5.5775155   0.3752916   0.9238793 
  5.5873175   0.3768096   0.9231235 
  5.5971194   0.3779559   0.9225864 
  5.6069214   0.3800063   0.9218220 
  5.6167233   0.3809901   0.9212305 
  5.6265253   0.3828626   0.9205943 
  5.6363273   0.3841891   0.9198336 
  5.6461292   0.3858048   0.9190634 
  5.6559312   0.3870015   0.9188462 
  5.6657331   0.3888029   0.9180881 
  5.6755351   0.3904107   0.9170043 
  5.6853371   0.3920032   0.9171107 
  5.6951390   0.3929656   0.9159784 
  5.7049410   0.3950340   0.9155063 
  5.7147429   0.3965503   0.9150541 
  5.7245449   0.3976506   0.9141813 
  5.7343469   0.3998566   0.9138954 
  5.7441488   0.4016038   0.9132775 
  5.7539508   0.4025292   0.9122490 
  5.7637528   0.4044855   0.9116862 
  5.7735547   0.4061203   0.9110370 
  5.7833567   0.4073474   0.9102144 
  5.7931586   0.4086429   0.9097951 
  5.8029606   0.4106806   0.9087819 
  5.8127626   0.4118715   0.9084230 
  5.8225645   0.4130233   0.9077522 
  5.8323665   0.4144396   0.9067280 
  5.8421684   0.4159419   0.9064619 
  5.8519704   0.4173807   0.9054807 
  5.8617724   0.4188045   0.9046493 
  5.8715743   0.4200815   0.9043323 
  5.8813763   0.4215483   0.9036492 
  5.8911782   0.4230271   0.9028073 
  5.9009802   0.4242691   0.9024371 
  5.9107822   0.4265251   0.9020210 
  5.9205841   0.4278253   0.9013602 
  5.9303861   0.4292951   0.9004354 
  5.9401880   0.4309044   0.8996256 
  5.9499900   0.4322540   0.8992233 
  5.9597920   0.4334540   0.8984242 
  5.9695939   0.4348146   0.8975798 
  5.9793959   0.4360685   0.8968945 
  5.9891978   0.4375462   0.8961329 
  5.9989998   0.4389513   0.8954030 
  6.0088018   0.4403336   0.8947702 
  6.0186037   0.4415509   0.8941209 
  6.0284057   0.4432187   0.8936585 
  6.0382076   0.4444396   0.8929038 
  6.0480096   0.4457898   0.8920998 
  6.0578116   0.4472058   0.8916193 
  6.0676135   0.4482821   0.8910103 
  6.0774155   0.4497123   0.8900949 
  6.0872174   0.4514422   0.8897479 
  6.0970194   0.4532483   0.8893051 
  6.1068214   0.4546022   0.8885860 
  6.1166233   0.4558846   0.8876307 
  6.1264253   0.4571568   0.8864278 
  6.1362272   0.4580653   0.8860866 
