! ListType=Lin
# MHz S RI R 50
  1.0000000  -0.8607283   0.4832737 
  1.0098020  -0.8581978   0.4872517 
  1.0196039  -0.8558566   0.4915005 
  1.0294059  -0.8535347   0.4958062 
  1.0392078  -0.8512064   0.4997642 
  1.0490098  -0.8487074   0.5038465 
  1.0588118  -0.8461131   0.5073131 
  1.0686137  -0.8435642   0.5111570 
  1.0784157  -0.8414732   0.5153361 
  1.0882176  -0.8391150   0.5188232 
  1.0980196  -0.8365326   0.5232114 
  1.1078216  -0.8340649   0.5271605 
  1.1176235  -0.8317003   0.5310725 
  1.1274255  -0.8291721   0.5349695 
  1.1372274  -0.8265745   0.5394693 
  1.1470294  -0.8243292   0.5428286 
  1.1568314  -0.8217020   0.5469329 
  1.1666333  -0.8190912   0.5508566 
  1.1764353  -0.8163033   0.5545812 
  1.1862372  -0.8136502   0.5585393 
  1.1960392  -0.8111624   0.5624850 
  1.2058412  -0.8088342   0.5660472 
  1.2156431  -0.8060341   0.5697056 
  1.2254451  -0.8030725   0.5736859 
  1.2352470  -0.8005735   0.5767615 
  1.2450490  -0.7977735   0.5805548 
  1.2548510  -0.7951324   0.5843359 
  1.2646529  -0.7923441   0.5877917 
  1.2744549  -0.7897114   0.5914078 
  1.2842569  -0.7869318   0.5952081 
  1.2940588  -0.7841993   0.5989482 
  1.3038608  -0.7818085   0.6023455 
  1.3136627  -0.7788512   0.6060994 
  1.3234647  -0.7761244   0.6094844 
  1.3332667  -0.7721886   0.6136792 
  1.3430686  -0.7705545   0.6168678 
  1.3528706  -0.7677758   0.6203294 
  1.3626725  -0.7648909   0.6238437 
  1.3724745  -0.7617350   0.6274541 
  1.3822765  -0.7588759   0.6309604 
  1.3920784  -0.7561261   0.6345094 
  1.4018804  -0.7538216   0.6379503 
  1.4116823  -0.7502492   0.6403546 
  1.4214843  -0.7477594   0.6438788 
  1.4312863  -0.7446866   0.6473152 
  1.4410882  -0.7417364   0.6506186 
  1.4508902  -0.7386705   0.6539108 
  1.4606921  -0.7359109   0.6571292 
  1.4704941  -0.7332347   0.6609360 
  1.4802961  -0.7303096   0.6641282 
  1.4900980  -0.7276364   0.6672559 
  1.4999000  -0.7243417   0.6705088 
  1.5097019  -0.7213928   0.6734986 
  1.5195039  -0.7183665   0.6767731 
  1.5293059  -0.7154419   0.6801236 
  1.5391078  -0.7123088   0.6830775 
  1.5489098  -0.7093395   0.6866321 
  1.5587117  -0.7064496   0.6896779 
  1.5685137  -0.7030739   0.6931554 
  1.5783157  -0.7003980   0.6960229 
  1.5881176  -0.6972471   0.6992699 
  1.5979196  -0.6942511   0.7013322 
  1.6077215  -0.6907043   0.7045273 
  1.6175235  -0.6876083   0.7074685 
  1.6273255  -0.6850555   0.7100233 
  1.6371274  -0.6817906   0.7134584 
  1.6469294  -0.6788929   0.7164586 
  1.6567313  -0.6756343   0.7195731 
  1.6665333  -0.6727550   0.7226698 
  1.6763353  -0.6695560   0.7251687 
  1.6861372  -0.6663898   0.7282626 
  1.6959392  -0.6635547   0.7310214 
  1.7057411  -0.6603068   0.7339357 
  1.7155431  -0.6571278   0.7369758 
  1.7253451  -0.6538467   0.7394706 
  1.7351470  -0.6506875   0.7427947 
  1.7449490  -0.6475912   0.7455045 
  1.7547510  -0.6442745   0.7482167 
  1.7645529  -0.6410961   0.7509723 
  1.7743549  -0.6379550   0.7529881 
  1.7841568  -0.6347234   0.7555989 
  1.7939588  -0.6315795   0.7583720 
  1.8037608  -0.6284827   0.7609727 
  1.8135627  -0.6251453   0.7636193 
  1.8233647  -0.6220370   0.7662930 
  1.8331666  -0.6190857   0.7687913 
  1.8429686  -0.6159929   0.7715413 
  1.8527706  -0.6125510   0.7743469 
  1.8625725  -0.6093275   0.7769370 
  1.8723745  -0.6063658   0.7790864 
  1.8821764  -0.6033575   0.7820993 
  1.8919784  -0.5999718   0.7843767 
  1.9017804  -0.5964132   0.7868224 
  1.9115823  -0.5935590   0.7896138 
  1.9213843  -0.5899965   0.7917350 
  1.9311862  -0.5870672   0.7946549 
  1.9409882  -0.5835025   0.7969101 
  1.9507902  -0.5803266   0.7984126 
  1.9605921  -0.5768237   0.8008676 
  1.9703941  -0.5740429   0.8032861 
  1.9801960  -0.5707013   0.8054376 
  1.9899980  -0.5679084   0.8082944 
  1.9998000  -0.5644227   0.8103024 
  2.0096019  -0.5609909   0.8125968 
  2.0194039  -0.5578588   0.8151145 
  2.0292058  -0.5543540   0.8174487 
  2.0390078  -0.5511394   0.8195211 
  2.0488098  -0.5480518   0.8218711 
  2.0586117  -0.5448016   0.8240290 
  2.0684137  -0.5414504   0.8261785 
  2.0782156  -0.5382121   0.8284782 
  2.0880176  -0.5345482   0.8308593 
  2.0978196  -0.5312800   0.8329618 
  2.1076215  -0.5280219   0.8350476 
  2.1174235  -0.5249160   0.8368525 
  2.1272254  -0.5216168   0.8391684 
  2.1370274  -0.5182210   0.8406534 
  2.1468294  -0.5149410   0.8423247 
  2.1566313  -0.5121622   0.8448816 
  2.1664333  -0.5081823   0.8464957 
  2.1762352  -0.5051811   0.8486583 
  2.1860372  -0.5023131   0.8505965 
  2.1958392  -0.4985332   0.8527356 
  2.2056411  -0.4953038   0.8546078 
  2.2154431  -0.4921885   0.8566101 
  2.2252450  -0.4886414   0.8586535 
  2.2350470  -0.4855062   0.8605471 
  2.2448490  -0.4823720   0.8625362 
  2.2546509  -0.4791017   0.8645213 
  2.2644529  -0.4757813   0.8662543 
  2.2742549  -0.4724146   0.8682126 
  2.2840568  -0.4689637   0.8697957 
  2.2938588  -0.4657161   0.8718451 
  2.3036607  -0.4619942   0.8734863 
  2.3134627  -0.4588594   0.8748423 
  2.3232647  -0.4558529   0.8761798 
  2.3330666  -0.4524918   0.8782297 
  2.3428686  -0.4488235   0.8798139 
  2.3526705  -0.4458915   0.8816329 
  2.3624725  -0.4426992   0.8833591 
  2.3722745  -0.4397463   0.8849716 
  2.3820764  -0.4365683   0.8869266 
  2.3918784  -0.4330383   0.8883156 
  2.4016803  -0.4300354   0.8898959 
  2.4114823  -0.4262589   0.8918889 
  2.4212843  -0.4232124   0.8934407 
  2.4310862  -0.4198462   0.8946690 
  2.4408882  -0.4165577   0.8965132 
  2.4506901  -0.4133548   0.8982995 
  2.4604921  -0.4096954   0.8997145 
  2.4702941  -0.4065400   0.9012201 
  2.4800960  -0.4032907   0.9031844 
  2.4898980  -0.3993623   0.9041751 
  2.4996999  -0.3970668   0.9051315 
  2.5095019  -0.3934845   0.9066946 
  2.5193039  -0.3903445   0.9075801 
  2.5291058  -0.3870852   0.9093446 
  2.5389078  -0.3834731   0.9105507 
  2.5487097  -0.3806376   0.9121722 
  2.5585117  -0.3772133   0.9132987 
  2.5683137  -0.3740659   0.9149892 
  2.5781156  -0.3708593   0.9166107 
  2.5879176  -0.3675498   0.9177814 
  2.5977195  -0.3641658   0.9193669 
  2.6075215  -0.3610331   0.9203587 
  2.6173235  -0.3579349   0.9218186 
  2.6271254  -0.3546433   0.9230740 
  2.6369274  -0.3515056   0.9246275 
  2.6467293  -0.3483015   0.9258725 
  2.6565313  -0.3452239   0.9271502 
  2.6663333  -0.3420073   0.9285128 
  2.6761352  -0.3384378   0.9288445 
  2.6859372  -0.3350266   0.9296002 
  2.6957391  -0.3322754   0.9312537 
  2.7055411  -0.3288541   0.9323221 
  2.7153431  -0.3260876   0.9335738 
  2.7251450  -0.3226639   0.9349575 
  2.7349470  -0.3192941   0.9358267 
  2.7447489  -0.3162367   0.9370977 
  2.7545509  -0.3130270   0.9382122 
  2.7643529  -0.3101382   0.9393145 
  2.7741548  -0.3069392   0.9406415 
  2.7839568  -0.3034978   0.9415330 
  2.7937588  -0.3005015   0.9426439 
  2.8035607  -0.2970756   0.9436075 
  2.8133627  -0.2938296   0.9450642 
  2.8231646  -0.2907784   0.9459987 
  2.8329666  -0.2875150   0.9471480 
  2.8427686  -0.2841803   0.9478975 
  2.8525705  -0.2811467   0.9480030 
  2.8623725  -0.2782261   0.9491269 
  2.8721744  -0.2752864   0.9501585 
  2.8819764  -0.2720990   0.9506409 
  2.8917784  -0.2687902   0.9520205 
  2.9015803  -0.2660221   0.9528500 
  2.9113823  -0.2626368   0.9539522 
  2.9211842  -0.2595671   0.9542997 
  2.9309862  -0.2568082   0.9555814 
  2.9407882  -0.2531163   0.9567843 
  2.9505901  -0.2503982   0.9577684 
  2.9603921  -0.2469106   0.9582604 
  2.9701940  -0.2440230   0.9592688 
  2.9799960  -0.2408196   0.9600366 
  2.9897980  -0.2379483   0.9608297 
  2.9995999  -0.2345681   0.9615757 
  3.0094019  -0.2317259   0.9626802 
  3.0192038  -0.2286165   0.9630098 
  3.0290058  -0.2251472   0.9640558 
  3.0388078  -0.2223319   0.9639136 
  3.0486097  -0.2192021   0.9647823 
  3.0584117  -0.2162541   0.9657825 
  3.0682136  -0.2132990   0.9659673 
  3.0780156  -0.2104646   0.9670910 
  3.0878176  -0.2073099   0.9676182 
  3.0976195  -0.2043364   0.9683907 
  3.1074215  -0.2011961   0.9688835 
  3.1172234  -0.1983236   0.9697203 
  3.1270254  -0.1953451   0.9706034 
  3.1368274  -0.1925867   0.9710869 
  3.1466293  -0.1892337   0.9719192 
  3.1564313  -0.1861909   0.9724064 
  3.1662332  -0.1831887   0.9733688 
  3.1760352  -0.1802087   0.9736167 
  3.1858372  -0.1771472   0.9742019 
  3.1956391  -0.1738604   0.9750868 
  3.2054411  -0.1710824   0.9758167 
  3.2152430  -0.1678732   0.9751888 
  3.2250450  -0.1653874   0.9760272 
  3.2348470  -0.1622366   0.9766724 
  3.2446489  -0.1588769   0.9770311 
  3.2544509  -0.1563362   0.9776952 
  3.2642529  -0.1539533   0.9781468 
  3.2740548  -0.1508912   0.9787239 
  3.2838568  -0.1478783   0.9792679 
  3.2936587  -0.1448234   0.9796496 
  3.3034607  -0.1418897   0.9804205 
  3.3132627  -0.1387642   0.9803751 
  3.3230646  -0.1360184   0.9816043 
  3.3328666  -0.1330636   0.9817585 
  3.3426685  -0.1298977   0.9818539 
  3.3524705  -0.1272983   0.9828283 
  3.3622725  -0.1245738   0.9830005 
  3.3720744  -0.1213777   0.9832425 
  3.3818764  -0.1185439   0.9838204 
  3.3916783  -0.1156416   0.9835495 
  3.4014803  -0.1128284   0.9837511 
  3.4112823  -0.1101463   0.9838646 
  3.4210842  -0.1069540   0.9844080 
  3.4308862  -0.1048411   0.9850624 
  3.4406881  -0.1017999   0.9853252 
  3.4504901  -0.0990308   0.9853927 
  3.4602921  -0.0959777   0.9859557 
  3.4700940  -0.0933328   0.9862404 
  3.4798960  -0.0904434   0.9867308 
  3.4896979  -0.0874334   0.9867412 
  3.4994999  -0.0845595   0.9872736 
  3.5093019  -0.0821610   0.9872871 
  3.5191038  -0.0794141   0.9878439 
  3.5289058  -0.0766514   0.9880914 
  3.5387077  -0.0737159   0.9883047 
  3.5485097  -0.0704522   0.9883408 
  3.5583117  -0.0680212   0.9887579 
  3.5681136  -0.0650220   0.9889211 
  3.5779156  -0.0624769   0.9883088 
  3.5877175  -0.0598910   0.9887048 
  3.5975195  -0.0573812   0.9890915 
  3.6073215  -0.0543126   0.9892705 
  3.6171234  -0.0520591   0.9895907 
  3.6269254  -0.0490779   0.9898369 
  3.6367273  -0.0461860   0.9898579 
  3.6465293  -0.0434313   0.9903725 
  3.6563313  -0.0410759   0.9904074 
  3.6661332  -0.0380962   0.9905900 
  3.6759352  -0.0359213   0.9907108 
  3.6857371  -0.0332204   0.9909570 
  3.6955391  -0.0299293   0.9906935 
  3.7053411  -0.0276010   0.9907578 
  3.7151430  -0.0250402   0.9910335 
  3.7249450  -0.0219678   0.9913460 
  3.7347469  -0.0193658   0.9914345 
  3.7445489  -0.0164337   0.9917353 
  3.7543509  -0.0141567   0.9904627 
  3.7641528  -0.0114456   0.9911140 
  3.7739548  -0.0088641   0.9908033 
  3.7837568  -0.0065956   0.9911324 
  3.7935587  -0.0037818   0.9910588 
  3.8033607  -0.0014471   0.9910917 
  3.8131626   0.0014218   0.9912936 
  3.8229646   0.0040667   0.9913513 
  3.8327666   0.0063985   0.9911946 
  3.8425685   0.0093566   0.9915822 
  3.8523705   0.0117679   0.9918145 
  3.8621724   0.0143156   0.9915078 
  3.8719744   0.0166448   0.9918669 
  3.8817764   0.0194599   0.9918529 
  3.8915783   0.0222703   0.9915504 
  3.9013803   0.0245630   0.9918482 
  3.9111822   0.0270555   0.9916692 
  3.9209842   0.0297663   0.9914840 
  3.9307862   0.0323608   0.9908063 
  3.9405881   0.0350056   0.9910490 
  3.9503901   0.0371384   0.9904124 
  3.9601920   0.0396997   0.9905212 
  3.9699940   0.0423832   0.9908171 
  3.9797960   0.0444264   0.9907957 
  3.9895979   0.0471669   0.9907047 
  3.9993999   0.0493069   0.9906662 
  4.0092018   0.0520748   0.9905232 
  4.0190038   0.0543041   0.9903355 
  4.0288058   0.0567947   0.9904297 
  4.0386077   0.0595520   0.9906211 
  4.0484097   0.0616687   0.9905197 
  4.0582116   0.0645040   0.9903463 
  4.0680136   0.0669815   0.9900683 
  4.0778156   0.0694102   0.9901613 
  4.0876175   0.0719107   0.9896213 
  4.0974195   0.0747607   0.9894454 
  4.1072214   0.0768793   0.9892848 
  4.1170234   0.0790614   0.9885619 
  4.1268254   0.0814081   0.9883500 
  4.1366273   0.0838339   0.9882801 
  4.1464293   0.0861752   0.9879754 
  4.1562312   0.0881884   0.9882085 
  4.1660332   0.0904362   0.9879629 
  4.1758352   0.0931031   0.9879793 
  4.1856371   0.0956100   0.9878574 
  4.1954391   0.0978266   0.9874237 
  4.2052410   0.1000403   0.9874339 
  4.2150430   0.1022269   0.9871417 
  4.2248450   0.1048128   0.9870089 
  4.2346469   0.1071440   0.9868873 
  4.2444489   0.1099401   0.9866826 
  4.2542509   0.1120703   0.9867321 
  4.2640528   0.1144225   0.9861105 
  4.2738548   0.1167826   0.9858130 
  4.2836567   0.1190747   0.9857112 
  4.2934587   0.1211222   0.9847745 
  4.3032607   0.1230034   0.9845545 
  4.3130626   0.1255715   0.9841266 
  4.3228646   0.1280273   0.9839840 
  4.3326665   0.1301168   0.9842339 
  4.3424685   0.1324243   0.9834853 
  4.3522705   0.1348746   0.9835521 
  4.3620724   0.1365542   0.9830744 
  4.3718744   0.1386910   0.9826230 
  4.3816763   0.1412317   0.9828007 
  4.3914783   0.1437550   0.9827409 
  4.4012803   0.1457340   0.9820245 
  4.4110822   0.1482306   0.9816532 
  4.4208842   0.1506168   0.9816731 
  4.4306861   0.1523850   0.9808725 
  4.4404881   0.1549440   0.9811814 
  4.4502901   0.1570100   0.9807016 
  4.4600920   0.1591349   0.9802335 
  4.4698940   0.1612188   0.9794431 
  4.4796959   0.1635103   0.9787375 
  4.4894979   0.1654755   0.9787627 
  4.4992999   0.1678294   0.9783276 
  4.5091018   0.1700928   0.9786598 
  4.5189038   0.1720888   0.9776864 
  4.5287057   0.1744228   0.9775798 
  4.5385077   0.1764618   0.9773585 
  4.5483097   0.1784143   0.9767921 
  4.5581116   0.1807696   0.9762604 
  4.5679136   0.1826376   0.9761910 
  4.5777155   0.1851743   0.9759536 
  4.5875175   0.1869590   0.9752844 
  4.5973195   0.1890910   0.9753804 
  4.6071214   0.1913155   0.9745226 
  4.6169234   0.1937245   0.9744899 
  4.6267253   0.1956981   0.9739657 
  4.6365273   0.1974960   0.9740624 
  4.6463293   0.1996186   0.9733440 
  4.6561312   0.2016598   0.9723684 
  4.6659332   0.2035229   0.9722000 
  4.6757351   0.2057547   0.9716746 
  4.6855371   0.2076533   0.9711638 
  4.6953391   0.2100002   0.9708858 
  4.7051410   0.2118682   0.9705100 
  4.7149430   0.2138339   0.9701365 
  4.7247449   0.2160825   0.9698887 
  4.7345469   0.2179464   0.9690819 
  4.7443489   0.2200046   0.9689812 
  4.7541508   0.2217861   0.9685594 
  4.7639528   0.2240314   0.9685739 
  4.7737548   0.2265080   0.9677952 
  4.7835567   0.2282113   0.9673807 
  4.7933587   0.2302288   0.9667359 
  4.8031606   0.2324412   0.9663785 
  4.8129626   0.2341911   0.9658426 
  4.8227646   0.2361272   0.9656964 
  4.8325665   0.2380041   0.9648209 
  4.8423685   0.2402267   0.9638625 
  4.8521704   0.2418801   0.9636907 
  4.8619724   0.2438377   0.9631335 
  4.8717744   0.2456033   0.9626658 
  4.8815763   0.2478792   0.9622318 
  4.8913783   0.2498438   0.9616354 
  4.9011802   0.2516510   0.9612350 
  4.9109822   0.2535656   0.9608394 
  4.9207842   0.2550925   0.9608494 
  4.9305861   0.2570491   0.9598365 
  4.9403881   0.2588915   0.9595075 
  4.9501900   0.2613468   0.9592602 
  4.9599920   0.2632900   0.9586340 
  4.9697940   0.2652513   0.9577386 
  4.9795959   0.2673545   0.9576056 
  4.9893979   0.2689390   0.9575510 
  4.9991998   0.2713079   0.9565391 
  5.0090018   0.2731048   0.9562980 
  5.0188038   0.2742478   0.9548781 
  5.0286057   0.2765693   0.9543012 
  5.0384077   0.2780765   0.9542374 
  5.0482096   0.2800968   0.9536161 
  5.0580116   0.2814952   0.9530134 
  5.0678136   0.2836923   0.9526433 
  5.0776155   0.2855397   0.9521773 
  5.0874175   0.2874038   0.9515663 
  5.0972194   0.2890372   0.9508174 
  5.1070214   0.2906439   0.9507178 
  5.1168234   0.2925028   0.9501935 
  5.1266253   0.2945368   0.9495829 
  5.1364273   0.2965022   0.9494442 
  5.1462292   0.2983112   0.9486761 
  5.1560312   0.3002153   0.9480958 
  5.1658332   0.3018250   0.9473388 
  5.1756351   0.3039893   0.9467965 
  5.1854371   0.3058980   0.9466810 
  5.1952390   0.3070858   0.9457951 
  5.2050410   0.3088537   0.9451401 
  5.2148430   0.3104343   0.9442930 
  5.2246449   0.3120272   0.9442146 
  5.2344469   0.3140582   0.9433433 
  5.2442488   0.3154411   0.9429193 
  5.2540508   0.3175251   0.9423243 
  5.2638528   0.3189999   0.9416963 
  5.2736547   0.3209151   0.9413641 
  5.2834567   0.3226672   0.9408121 
  5.2932587   0.3241265   0.9398417 
  5.3030606   0.3264850   0.9394993 
  5.3128626   0.3278911   0.9388012 
  5.3226645   0.3299672   0.9384143 
  5.3324665   0.3310011   0.9375691 
  5.3422685   0.3332241   0.9371119 
  5.3520704   0.3349116   0.9368524 
  5.3618724   0.3367594   0.9361045 
  5.3716743   0.3375861   0.9349600 
  5.3814763   0.3394747   0.9345872 
  5.3912783   0.3414137   0.9338197 
  5.4010802   0.3424397   0.9336740 
  5.4108822   0.3444514   0.9332915 
  5.4206841   0.3460319   0.9322203 
  5.4304861   0.3478719   0.9318835 
  5.4402881   0.3497920   0.9313144 
  5.4500900   0.3513097   0.9308626 
  5.4598920   0.3525815   0.9301337 
  5.4696939   0.3545206   0.9293028 
  5.4794959   0.3563027   0.9288363 
  5.4892979   0.3574718   0.9282359 
  5.4990998   0.3594168   0.9273762 
  5.5089018   0.3611670   0.9271953 
  5.5187037   0.3627488   0.9264125 
  5.5285057   0.3638543   0.9260863 
  5.5383077   0.3661697   0.9252351 
  5.5481096   0.3671448   0.9246646 
  5.5579116   0.3688324   0.9236199 
  5.5677135   0.3699818   0.9230675 
  5.5775155   0.3720869   0.9224726 
  5.5873175   0.3736033   0.9218579 
  5.5971194   0.3747724   0.9213288 
  5.6069214   0.3770515   0.9206238 
  5.6167233   0.3778536   0.9204639 
  5.6265253   0.3797345   0.9197289 
  5.6363273   0.3810718   0.9188400 
  5.6461292   0.3828051   0.9183654 
  5.6559312   0.3843064   0.9180895 
  5.6657331   0.3862039   0.9171032 
  5.6755351   0.3878200   0.9164959 
  5.6853371   0.3893314   0.9162302 
  5.6951390   0.3906401   0.9154546 
  5.7049410   0.3923959   0.9146557 
  5.7147429   0.3941476   0.9142195 
  5.7245449   0.3954079   0.9132596 
  5.7343469   0.3964080   0.9124404 
  5.7441488   0.3980968   0.9118222 
  5.7539508   0.3992947   0.9109255 
  5.7637528   0.4010972   0.9106185 
  5.7735547   0.4026311   0.9103239 
  5.7833567   0.4038987   0.9091919 
  5.7931586   0.4054107   0.9090886 
  5.8029606   0.4071970   0.9081829 
  5.8127626   0.4085732   0.9076683 
  5.8225645   0.4099865   0.9071961 
  5.8323665   0.4115541   0.9061808 
  5.8421684   0.4130075   0.9060069 
  5.8519704   0.4146540   0.9053821 
  5.8617724   0.4160744   0.9043739 
  5.8715743   0.4174178   0.9038842 
  5.8813763   0.4191375   0.9032291 
  5.8911782   0.4206697   0.9022535 
  5.9009802   0.4217425   0.9017264 
  5.9107822   0.4230847   0.9010249 
  5.9205841   0.4242958   0.9004680 
  5.9303861   0.4256097   0.8996169 
  5.9401880   0.4272311   0.8988521 
  5.9499900   0.4285252   0.8985573 
  5.9597920   0.4296786   0.8979070 
  5.9695939   0.4314423   0.8971721 
  5.9793959   0.4325710   0.8966869 
  5.9891978   0.4342684   0.8960041 
  5.9989998   0.4358346   0.8950378 
  6.0088018   0.4372920   0.8944844 
  6.0186037   0.4385377   0.8938824 
  6.0284057   0.4401793   0.8934261 
  6.0382076   0.4412782   0.8928888 
  6.0480096   0.4429065   0.8919656 
  6.0578116   0.4440096   0.8913693 
  6.0676135   0.4454391   0.8907050 
  6.0774155   0.4469054   0.8896297 
  6.0872174   0.4488214   0.8892335 
  6.0970194   0.4492246   0.8885634 
  6.1068214   0.4507370   0.8879097 
  6.1166233   0.4518320   0.8872585 
  6.1264253   0.4532265   0.8861851 
  6.1362272   0.4542225   0.8857367 
