! ListType=Lin
# MHz S RI R 50
  1.0000000  -0.7695793   0.6260925 
  1.0098020  -0.7653263   0.6306146 
  1.0196039  -0.7613205   0.6354085 
  1.0294059  -0.7574408   0.6400753 
  1.0392078  -0.7536276   0.6445400 
  1.0490098  -0.7495406   0.6496365 
  1.0588118  -0.7453563   0.6532234 
  1.0686137  -0.7414492   0.6574529 
  1.0784157  -0.7379122   0.6623921 
  1.0882176  -0.7341077   0.6664179 
  1.0980196  -0.7296848   0.6709901 
  1.1078216  -0.7254891   0.6754649 
  1.1176235  -0.7216090   0.6799476 
  1.1274255  -0.7175559   0.6843758 
  1.1372274  -0.7132528   0.6891731 
  1.1470294  -0.7093471   0.6932162 
  1.1568314  -0.7049135   0.6975888 
  1.1666333  -0.7007751   0.7017796 
  1.1764353  -0.6966220   0.7058316 
  1.1862372  -0.6921983   0.7102516 
  1.1960392  -0.6880121   0.7145602 
  1.2058412  -0.6838423   0.7182809 
  1.2156431  -0.6794322   0.7223474 
  1.2254451  -0.6750219   0.7264253 
  1.2352470  -0.6710686   0.7295515 
  1.2450490  -0.6665659   0.7334576 
  1.2548510  -0.6624037   0.7376197 
  1.2646529  -0.6582300   0.7413457 
  1.2744549  -0.6538461   0.7450727 
  1.2842569  -0.6494533   0.7488433 
  1.2940588  -0.6450793   0.7529825 
  1.3038608  -0.6411811   0.7565680 
  1.3136627  -0.6364291   0.7601778 
  1.3234647  -0.6321234   0.7640356 
  1.3332667  -0.6266441   0.7672928 
  1.3430686  -0.6232805   0.7713253 
  1.3528706  -0.6188605   0.7749005 
  1.3626725  -0.6144694   0.7784647 
  1.3724745  -0.6098759   0.7818968 
  1.3822765  -0.6051442   0.7854574 
  1.3920784  -0.6007897   0.7891623 
  1.4018804  -0.5967380   0.7927189 
  1.4116823  -0.5921740   0.7947757 
  1.4214843  -0.5879898   0.7981923 
  1.4312863  -0.5831153   0.8013980 
  1.4410882  -0.5788814   0.8048319 
  1.4508902  -0.5742947   0.8080895 
  1.4606921  -0.5697719   0.8109547 
  1.4704941  -0.5655350   0.8148136 
  1.4802961  -0.5611580   0.8178558 
  1.4900980  -0.5569808   0.8208148 
  1.4999000  -0.5520300   0.8239304 
  1.5097019  -0.5472645   0.8266405 
  1.5195039  -0.5431939   0.8298007 
  1.5293059  -0.5383419   0.8329795 
  1.5391078  -0.5338819   0.8358049 
  1.5489098  -0.5293307   0.8388493 
  1.5587117  -0.5247551   0.8415992 
  1.5685137  -0.5198199   0.8446146 
  1.5783157  -0.5157575   0.8476903 
  1.5881176  -0.5111368   0.8502262 
  1.5979196  -0.5067299   0.8521372 
  1.6077215  -0.5017661   0.8548342 
  1.6175235  -0.4972502   0.8574650 
  1.6273255  -0.4932199   0.8598326 
  1.6371274  -0.4884400   0.8626852 
  1.6469294  -0.4844440   0.8655054 
  1.6567313  -0.4792549   0.8682277 
  1.6665333  -0.4750886   0.8707155 
  1.6763353  -0.4706079   0.8729746 
  1.6861372  -0.4657839   0.8755143 
  1.6959392  -0.4614457   0.8779423 
  1.7057411  -0.4567005   0.8805733 
  1.7155431  -0.4521262   0.8830420 
  1.7253451  -0.4475446   0.8849629 
  1.7351470  -0.4429756   0.8879498 
  1.7449490  -0.4384146   0.8897939 
  1.7547510  -0.4337684   0.8922239 
  1.7645529  -0.4292023   0.8943225 
  1.7743549  -0.4248980   0.8959453 
  1.7841568  -0.4201984   0.8978593 
  1.7939588  -0.4158543   0.9000638 
  1.8037608  -0.4114051   0.9021773 
  1.8135627  -0.4066847   0.9042803 
  1.8233647  -0.4022837   0.9062779 
  1.8331666  -0.3980114   0.9084260 
  1.8429686  -0.3936664   0.9104958 
  1.8527706  -0.3890011   0.9125276 
  1.8625725  -0.3842564   0.9144959 
  1.8723745  -0.3801604   0.9160969 
  1.8821764  -0.3756518   0.9185096 
  1.8919784  -0.3710705   0.9203287 
  1.9017804  -0.3664961   0.9218211 
  1.9115823  -0.3619233   0.9239225 
  1.9213843  -0.3573761   0.9252332 
  1.9311862  -0.3529309   0.9276829 
  1.9409882  -0.3484318   0.9290761 
  1.9507902  -0.3440141   0.9299798 
  1.9605921  -0.3394625   0.9314100 
  1.9703941  -0.3353197   0.9332930 
  1.9801960  -0.3309762   0.9347900 
  1.9899980  -0.3266362   0.9369455 
  1.9998000  -0.3220012   0.9382271 
  2.0096019  -0.3176779   0.9395883 
  2.0194039  -0.3133915   0.9414912 
  2.0292058  -0.3084908   0.9429568 
  2.0390078  -0.3043208   0.9444751 
  2.0488098  -0.2999260   0.9458663 
  2.0586117  -0.2954849   0.9474734 
  2.0684137  -0.2911030   0.9485059 
  2.0782156  -0.2867578   0.9499483 
  2.0880176  -0.2820046   0.9515805 
  2.0978196  -0.2773450   0.9527671 
  2.1076215  -0.2732620   0.9541924 
  2.1174235  -0.2691112   0.9553027 
  2.1272254  -0.2647514   0.9566471 
  2.1370274  -0.2604968   0.9569683 
  2.1468294  -0.2562097   0.9580399 
  2.1566313  -0.2521086   0.9598739 
  2.1664333  -0.2474683   0.9604433 
  2.1762352  -0.2433930   0.9616664 
  2.1860372  -0.2393200   0.9630562 
  2.1958392  -0.2347690   0.9639819 
  2.2056411  -0.2307456   0.9651137 
  2.2154431  -0.2265839   0.9662495 
  2.2252450  -0.2218031   0.9672889 
  2.2350470  -0.2178280   0.9683219 
  2.2448490  -0.2136747   0.9695501 
  2.2546509  -0.2092378   0.9704479 
  2.2644529  -0.2051402   0.9713482 
  2.2742549  -0.2008443   0.9723835 
  2.2840568  -0.1967463   0.9729400 
  2.2938588  -0.1923903   0.9739400 
  2.3036607  -0.1879659   0.9747571 
  2.3134627  -0.1837983   0.9750297 
  2.3232647  -0.1799420   0.9755530 
  2.3330666  -0.1755912   0.9765586 
  2.3428686  -0.1712749   0.9772848 
  2.3526705  -0.1675296   0.9780187 
  2.3624725  -0.1633715   0.9788905 
  2.3722745  -0.1593772   0.9795445 
  2.3820764  -0.1556093   0.9806175 
  2.3918784  -0.1513328   0.9809075 
  2.4016803  -0.1474059   0.9819291 
  2.4114823  -0.1428531   0.9825327 
  2.4212843  -0.1385722   0.9830844 
  2.4310862  -0.1347969   0.9833597 
  2.4408882  -0.1305780   0.9842545 
  2.4506901  -0.1265784   0.9850362 
  2.4604921  -0.1224930   0.9853746 
  2.4702941  -0.1184276   0.9859692 
  2.4800960  -0.1144236   0.9868727 
  2.4898980  -0.1100156   0.9867139 
  2.4996999  -0.1071520   0.9870904 
  2.5095019  -0.1027522   0.9873554 
  2.5193039  -0.0990666   0.9873832 
  2.5291058  -0.0947356   0.9879808 
  2.5389078  -0.0908006   0.9882207 
  2.5487097  -0.0873163   0.9887646 
  2.5585117  -0.0833586   0.9889428 
  2.5683137  -0.0792489   0.9895760 
  2.5781156  -0.0754404   0.9902810 
  2.5879176  -0.0713840   0.9902931 
  2.5977195  -0.0672433   0.9910192 
  2.6075215  -0.0637644   0.9909452 
  2.6173235  -0.0599914   0.9912630 
  2.6271254  -0.0559302   0.9917002 
  2.6369274  -0.0522974   0.9920996 
  2.6467293  -0.0483124   0.9922429 
  2.6565313  -0.0447364   0.9926621 
  2.6663333  -0.0407413   0.9930933 
  2.6761352  -0.0369352   0.9922065 
  2.6859372  -0.0330603   0.9918156 
  2.6957391  -0.0297735   0.9924426 
  2.7055411  -0.0258102   0.9925528 
  2.7153431  -0.0225401   0.9926332 
  2.7251450  -0.0185263   0.9930501 
  2.7349470  -0.0149589   0.9929737 
  2.7447489  -0.0111004   0.9931158 
  2.7545509  -0.0073740   0.9931133 
  2.7643529  -0.0039289   0.9933097 
  2.7741548  -0.0001240   0.9934723 
  2.7839568   0.0035338   0.9934142 
  2.7937588   0.0071556   0.9936252 
  2.8035607   0.0109864   0.9935084 
  2.8133627   0.0149525   0.9937290 
  2.8231646   0.0182839   0.9936470 
  2.8329666   0.0219314   0.9936920 
  2.8427686   0.0256597   0.9932064 
  2.8525705   0.0287323   0.9927857 
  2.8623725   0.0322531   0.9929022 
  2.8721744   0.0356696   0.9928024 
  2.8819764   0.0390099   0.9921533 
  2.8917784   0.0428072   0.9925198 
  2.9015803   0.0461055   0.9921044 
  2.9113823   0.0500394   0.9923161 
  2.9211842   0.0531175   0.9917411 
  2.9309862   0.0564997   0.9919659 
  2.9407882   0.0604083   0.9920267 
  2.9505901   0.0638591   0.9919260 
  2.9603921   0.0672698   0.9914570 
  2.9701940   0.0704374   0.9917704 
  2.9799960   0.0742002   0.9910326 
  2.9897980   0.0774729   0.9908927 
  2.9995999   0.0809851   0.9905440 
  3.0094019   0.0845525   0.9907102 
  3.0192038   0.0879642   0.9901632 
  3.0290058   0.0914471   0.9898746 
  3.0388078   0.0941372   0.9889092 
  3.0486097   0.0974422   0.9883658 
  3.0584117   0.1009440   0.9884493 
  3.0682136   0.1041804   0.9879227 
  3.0780156   0.1073262   0.9878417 
  3.0878176   0.1106051   0.9875666 
  3.0976195   0.1136218   0.9874290 
  3.1074215   0.1170721   0.9866764 
  3.1172234   0.1204211   0.9864729 
  3.1270254   0.1236085   0.9863689 
  3.1368274   0.1268593   0.9860590 
  3.1466293   0.1302671   0.9856469 
  3.1564313   0.1335472   0.9852833 
  3.1662332   0.1368894   0.9851464 
  3.1760352   0.1394700   0.9842246 
  3.1858372   0.1431280   0.9838664 
  3.1956391   0.1464839   0.9834254 
  3.2054411   0.1493982   0.9834723 
  3.2152430   0.1527117   0.9819039 
  3.2250450   0.1553180   0.9815846 
  3.2348470   0.1585055   0.9812529 
  3.2446489   0.1622154   0.9806306 
  3.2544509   0.1647894   0.9800387 
  3.2642529   0.1674239   0.9799725 
  3.2740548   0.1705730   0.9794065 
  3.2838568   0.1738692   0.9790793 
  3.2936587   0.1771608   0.9782832 
  3.3034607   0.1800582   0.9779926 
  3.3132627   0.1829886   0.9771106 
  3.3230646   0.1862441   0.9772336 
  3.3328666   0.1891728   0.9763746 
  3.3426685   0.1924794   0.9755130 
  3.3524705   0.1954042   0.9755222 
  3.3622725   0.1982615   0.9747470 
  3.3720744   0.2012053   0.9737490 
  3.3818764   0.2042038   0.9736087 
  3.3916783   0.2068932   0.9724217 
  3.4014803   0.2098088   0.9717490 
  3.4112823   0.2125316   0.9709368 
  3.4210842   0.2155923   0.9704856 
  3.4308862   0.2182780   0.9702190 
  3.4406881   0.2210801   0.9694162 
  3.4504901   0.2239914   0.9687344 
  3.4602921   0.2270299   0.9681955 
  3.4700940   0.2297361   0.9673827 
  3.4798960   0.2325465   0.9670271 
  3.4896979   0.2357192   0.9659908 
  3.4994999   0.2385970   0.9655251 
  3.5093019   0.2410834   0.9648851 
  3.5191038   0.2438613   0.9643634 
  3.5289058   0.2465889   0.9636250 
  3.5387077   0.2495535   0.9628214 
  3.5485097   0.2524825   0.9620016 
  3.5583117   0.2552041   0.9616244 
  3.5681136   0.2578881   0.9606514 
  3.5779156   0.2602765   0.9594654 
  3.5877175   0.2630791   0.9588522 
  3.5975195   0.2657060   0.9584964 
  3.6073215   0.2687797   0.9574896 
  3.6171234   0.2710483   0.9571513 
  3.6269254   0.2737906   0.9560645 
  3.6367273   0.2764549   0.9554040 
  3.6465293   0.2793879   0.9548485 
  3.6563313   0.2818177   0.9542853 
  3.6661332   0.2849607   0.9531649 
  3.6759352   0.2868693   0.9529171 
  3.6857371   0.2893666   0.9520161 
  3.6955391   0.2926698   0.9507506 
  3.7053411   0.2947852   0.9499456 
  3.7151430   0.2973800   0.9495372 
  3.7249450   0.3003032   0.9486481 
  3.7347469   0.3030185   0.9480547 
  3.7445489   0.3056864   0.9473455 
  3.7543509   0.3078661   0.9452548 
  3.7641528   0.3101313   0.9450313 
  3.7739548   0.3127109   0.9440068 
  3.7837568   0.3152190   0.9433348 
  3.7935587   0.3176264   0.9426260 
  3.8033607   0.3201124   0.9417509 
  3.8131626   0.3226596   0.9412052 
  3.8229646   0.3252863   0.9401407 
  3.8327666   0.3276940   0.9393363 
  3.8425685   0.3304134   0.9385511 
  3.8523705   0.3327279   0.9379376 
  3.8621724   0.3352842   0.9369698 
  3.8719744   0.3372950   0.9366404 
  3.8817764   0.3399703   0.9353912 
  3.8915783   0.3426376   0.9344797 
  3.9013803   0.3448708   0.9339260 
  3.9111822   0.3470985   0.9329878 
  3.9209842   0.3497536   0.9319434 
  3.9307862   0.3518708   0.9302185 
  3.9405881   0.3543925   0.9299147 
  3.9503901   0.3564816   0.9287164 
  3.9601920   0.3588399   0.9278371 
  3.9699940   0.3611981   0.9270548 
  3.9797960   0.3634206   0.9264783 
  3.9895979   0.3657633   0.9256350 
  3.9993999   0.3679119   0.9247325 
  4.0092018   0.3703616   0.9238043 
  4.0190038   0.3727346   0.9229501 
  4.0288058   0.3748807   0.9221134 
  4.0386077   0.3774009   0.9213053 
  4.0484097   0.3793581   0.9203696 
  4.0582116   0.3819713   0.9194740 
  4.0680136   0.3841786   0.9185298 
  4.0778156   0.3866989   0.9175587 
  4.0876175   0.3886689   0.9166702 
  4.0974195   0.3913309   0.9152832 
  4.1072214   0.3930765   0.9145831 
  4.1170234   0.3951051   0.9131780 
  4.1268254   0.3974995   0.9122109 
  4.1366273   0.3994109   0.9112879 
  4.1464293   0.4015926   0.9107440 
  4.1562312   0.4035368   0.9097283 
  4.1660332   0.4056010   0.9092365 
  4.1758352   0.4080729   0.9081832 
  4.1856371   0.4103205   0.9071052 
  4.1954391   0.4122068   0.9058976 
  4.2052410   0.4144751   0.9051748 
  4.2150430   0.4162676   0.9044869 
  4.2248450   0.4183834   0.9036178 
  4.2346469   0.4207854   0.9025558 
  4.2444489   0.4232242   0.9013423 
  4.2542509   0.4251971   0.9007046 
  4.2640528   0.4271363   0.8993874 
  4.2738548   0.4293735   0.8985757 
  4.2836567   0.4312416   0.8974861 
  4.2934587   0.4332621   0.8961927 
  4.3032607   0.4349113   0.8955768 
  4.3130626   0.4370574   0.8943117 
  4.3228646   0.4391666   0.8932603 
  4.3326665   0.4412690   0.8927281 
  4.3424685   0.4430713   0.8915608 
  4.3522705   0.4455712   0.8905238 
  4.3620724   0.4472013   0.8895391 
  4.3718744   0.4487145   0.8885237 
  4.3816763   0.4511353   0.8879806 
  4.3914783   0.4533275   0.8869645 
  4.4012803   0.4552958   0.8858637 
  4.4110822   0.4572000   0.8846359 
  4.4208842   0.4594691   0.8837342 
  4.4306861   0.4608520   0.8826982 
  4.4404881   0.4632169   0.8820577 
  4.4502901   0.4649099   0.8811399 
  4.4600920   0.4669885   0.8800002 
  4.4698940   0.4684303   0.8785214 
  4.4796959   0.4705084   0.8773216 
  4.4894979   0.4721564   0.8765140 
  4.4992999   0.4742455   0.8755309 
  4.5091018   0.4761691   0.8749512 
  4.5189038   0.4778648   0.8736746 
  4.5287057   0.4799826   0.8726282 
  4.5385077   0.4817021   0.8719246 
  4.5483097   0.4835417   0.8705467 
  4.5581116   0.4853356   0.8693190 
  4.5679136   0.4875094   0.8684871 
  4.5777155   0.4893905   0.8676946 
  4.5875175   0.4909037   0.8667062 
  4.5973195   0.4927940   0.8658522 
  4.6071214   0.4945471   0.8645696 
  4.6169234   0.4966858   0.8635657 
  4.6267253   0.4981708   0.8625327 
  4.6365273   0.5000143   0.8619504 
  4.6463293   0.5017410   0.8606241 
  4.6561312   0.5034291   0.8595104 
  4.6659332   0.5052540   0.8585118 
  4.6757351   0.5068657   0.8574443 
  4.6855371   0.5084252   0.8564520 
  4.6953391   0.5104464   0.8554206 
  4.7051410   0.5119953   0.8543753 
  4.7149430   0.5138182   0.8534277 
  4.7247449   0.5157628   0.8525416 
  4.7345469   0.5172488   0.8512478 
  4.7443489   0.5190481   0.8504129 
  4.7541508   0.5206250   0.8494301 
  4.7639528   0.5222490   0.8487443 
  4.7737548   0.5243054   0.8475377 
  4.7835567   0.5260151   0.8464763 
  4.7933587   0.5277505   0.8453367 
  4.8031606   0.5291495   0.8443520 
  4.8129626   0.5307914   0.8433404 
  4.8227646   0.5326319   0.8424927 
  4.8325665   0.5340873   0.8411879 
  4.8423685   0.5358820   0.8396450 
  4.8521704   0.5374719   0.8389429 
  4.8619724   0.5388586   0.8379243 
  4.8717744   0.5405043   0.8369657 
  4.8815763   0.5423593   0.8358958 
  4.8913783   0.5439416   0.8345737 
  4.9011802   0.5455240   0.8337356 
  4.9109822   0.5469791   0.8329731 
  4.9207842   0.5485048   0.8323034 
  4.9305861   0.5499034   0.8306306 
  4.9403881   0.5514338   0.8299897 
  4.9501900   0.5535261   0.8289199 
  4.9599920   0.5550747   0.8277954 
  4.9697940   0.5566818   0.8265272 
  4.9795959   0.5582804   0.8255422 
  4.9893979   0.5596820   0.8249580 
  4.9991998   0.5616456   0.8236901 
  5.0090018   0.5632346   0.8227585 
  5.0188038   0.5638398   0.8213606 
  5.0286057   0.5659249   0.8199540 
  5.0384077   0.5670188   0.8194058 
  5.0482096   0.5687765   0.8181993 
  5.0580116   0.5699862   0.8172958 
  5.0678136   0.5718537   0.8162433 
  5.0776155   0.5733410   0.8153272 
  5.0874175   0.5747524   0.8140834 
  5.0972194   0.5759965   0.8129819 
  5.1070214   0.5775317   0.8123023 
  5.1168234   0.5788250   0.8111349 
  5.1266253   0.5805557   0.8100881 
  5.1364273   0.5821103   0.8095722 
  5.1462292   0.5836069   0.8081915 
  5.1560312   0.5850363   0.8070780 
  5.1658332   0.5863969   0.8059770 
  5.1756351   0.5879884   0.8048337 
  5.1854371   0.5898491   0.8042290 
  5.1952390   0.5906179   0.8029996 
  5.2050410   0.5920340   0.8019551 
  5.2148430   0.5933993   0.8006884 
  5.2246449   0.5946636   0.8001529 
  5.2344469   0.5963526   0.7986888 
  5.2442488   0.5975706   0.7978213 
  5.2540508   0.5993097   0.7967695 
  5.2638528   0.6002787   0.7957680 
  5.2736547   0.6019026   0.7948413 
  5.2834567   0.6034680   0.7936685 
  5.2932587   0.6042295   0.7924870 
  5.3030606   0.6064015   0.7914046 
  5.3128626   0.6071890   0.7904063 
  5.3226645   0.6089490   0.7894365 
  5.3324665   0.6095937   0.7882477 
  5.3422685   0.6114755   0.7874330 
  5.3520704   0.6127925   0.7866177 
  5.3618724   0.6142438   0.7853294 
  5.3716743   0.6153008   0.7841795 
  5.3814763   0.6164605   0.7830499 
  5.3912783   0.6180474   0.7819311 
  5.4010802   0.6187494   0.7813728 
  5.4108822   0.6203764   0.7806332 
  5.4206841   0.6216993   0.7790275 
  5.4304861   0.6229668   0.7784540 
  5.4402881   0.6246639   0.7770489 
  5.4500900   0.6258327   0.7760803 
  5.4598920   0.6268883   0.7752598 
  5.4696939   0.6281751   0.7738488 
  5.4794959   0.6296726   0.7731147 
  5.4892979   0.6306820   0.7720588 
  5.4990998   0.6320411   0.7709300 
  5.5089018   0.6335905   0.7699485 
  5.5187037   0.6346640   0.7690129 
  5.5285057   0.6356953   0.7682668 
  5.5383077   0.6372411   0.7669771 
  5.5481096   0.6382902   0.7660609 
  5.5579116   0.6395074   0.7646013 
  5.5677135   0.6403814   0.7638518 
  5.5775155   0.6419317   0.7625448 
  5.5873175   0.6431918   0.7617455 
  5.5971194   0.6441388   0.7608032 
  5.6069214   0.6458322   0.7594719 
  5.6167233   0.6466777   0.7590464 
  5.6265253   0.6478693   0.7577451 
  5.6363273   0.6490717   0.7568012 
  5.6461292   0.6505635   0.7557640 
  5.6559312   0.6516360   0.7550678 
  5.6657331   0.6530015   0.7539046 
  5.6755351   0.6539415   0.7525651 
  5.6853371   0.6553803   0.7518920 
  5.6951390   0.6563574   0.7509235 
  5.7049410   0.6577057   0.7496066 
  5.7147429   0.6592839   0.7485626 
  5.7245449   0.6598814   0.7475324 
  5.7343469   0.6607956   0.7464934 
  5.7441488   0.6621780   0.7454916 
  5.7539508   0.6629757   0.7445505 
  5.7637528   0.6642323   0.7435209 
  5.7735547   0.6654727   0.7425909 
  5.7833567   0.6665122   0.7416604 
  5.7931586   0.6677210   0.7408024 
  5.8029606   0.6692441   0.7394426 
  5.8127626   0.6701342   0.7387682 
  5.8225645   0.6710631   0.7378524 
  5.8323665   0.6722427   0.7366669 
  5.8421684   0.6735624   0.7357669 
  5.8519704   0.6745898   0.7346156 
  5.8617724   0.6757762   0.7337096 
  5.8715743   0.6767224   0.7327970 
  5.8813763   0.6779405   0.7315668 
  5.8911782   0.6790350   0.7303231 
  5.9009802   0.6798827   0.7296780 
  5.9107822   0.6810648   0.7287767 
  5.9205841   0.6820153   0.7280448 
  5.9303861   0.6829180   0.7265583 
  5.9401880   0.6840809   0.7255667 
  5.9499900   0.6852102   0.7247136 
  5.9597920   0.6860132   0.7238764 
  5.9695939   0.6871523   0.7225675 
  5.9793959   0.6881738   0.7217623 
  5.9891978   0.6893231   0.7207710 
  5.9989998   0.6905665   0.7197951 
  6.0088018   0.6916598   0.7186411 
  6.0186037   0.6926463   0.7178402 
  6.0284057   0.6939905   0.7168987 
  6.0382076   0.6947101   0.7158551 
  6.0480096   0.6957220   0.7147792 
  6.0578116   0.6967874   0.7139405 
  6.0676135   0.6977489   0.7128759 
  6.0774155   0.6988058   0.7116201 
  6.0872174   0.7001777   0.7107386 
  6.0970194   0.7006248   0.7100460 
  6.1068214   0.7020108   0.7089219 
  6.1166233   0.7025462   0.7081984 
  6.1264253   0.7035358   0.7067917 
  6.1362272   0.7041669   0.7059434 
